# Hz S RI R 50
6.000000000000001E10 0.4417937432831935 0.2818488934441412 0.6008621566990185 -0.4332263971320642 0.6008597695212082 -0.43321674416224065 0.07625711337048888 0.431008949332767
6.0075E10 0.5074827348840619 0.036061909598237026 0.4711888981196738 -0.6212349293606362 0.47118976851325195 -0.6212245979659126 0.07279653798177105 0.3737380304798025
6.015000000000001E10 0.43716591390695303 -0.20382052526501285 0.26832136890354785 -0.7629366190422567 0.26832566693446724 -0.7629269101202059 0.046217298481331145 0.3356952155818311
6.0225E10 0.2610166815584265 -0.35945476096811235 0.019863446195564977 -0.8232437895965007 0.019870682127582712 -0.8232359478978479 0.014583953090046469 0.327421990996498
6.030000000000001E10 0.05291969260235377 -0.39434919743536995 -0.2309353435455021 -0.7927003207676849 -0.23092610816281925 -0.7926951521827583 -0.0013250994927489729 0.34341415000922515
6.037500000000001E10 -0.11693653113363327 -0.32809604242138324 -0.4497258066184714 -0.6872252756816689 -0.4497155791258285 -0.6872230815037212 0.009138332154598854 0.36628172121353014
6.045E10 -0.21397669004661993 -0.20926329891298812 -0.6212175704815193 -0.5303128922886302 -0.6212072071010653 -0.5303136596472324 0.043255655584647994 0.37776327172903856
6.052500000000001E10 -0.23783128089557853 -0.08490908284641355 -0.7421804735984927 -0.3396759411151888 -0.7421706858888072 -0.3396795351280918 0.08946376587506087 0.36574116832730585
6.06E10 -0.2078878282585484 0.012793894316891225 -0.8111286834316886 -0.12589319532838308 -0.811120140660348 -0.12589941945456043 0.13236013086563583 0.3260818448086905
6.067500000000001E10 -0.15169326439369635 0.0686958710705303 -0.8231920903799982 0.10215688947831351 -0.8231854883292773 0.10214835381157918 0.15623307782503265 0.262962859773467
6.075000000000001E10 -0.09707805635872492 0.08415390937639261 -0.7714233165066408 0.3311079830644296 -0.7714193434041094 0.33109768343832935 0.1489385335464188 0.18891657217011976
6.0825E10 -0.06431065849472777 0.07506643000708886 -0.6528385848441282 0.5405773170840891 -0.6528377799052176 0.5405660857309866 0.10692591433785983 0.12261721540317828
6.090000000000001E10 -0.05856509666337376 0.06523788921491981 -0.4748302717299671 0.7070440327855624 -0.4748328515525739 0.7070329121084565 0.038692128304442214 0.0824847065557757
6.0975E10 -0.06794863897550449 0.07481568420565622 -0.2560460105680221 0.8122172156438181 -0.25605178537743994 0.8122072672492876 -0.037535482332814285 0.07840112071243961
6.105000000000001E10 -0.07039858052856537 0.11005811530658857 -0.02009181196944561 0.8490112580429419 -0.020100250911488364 0.8490033716562576 -0.10180923212796189 0.10747085047121294
6.112500000000001E10 -0.04510676332093569 0.16087795592021284 0.21242551941598603 0.8202967142489149 0.21241514029899822 0.8202915255458887 -0.1405373508135078 0.15670131960658992
6.12E10 0.01854866143593724 0.20557423764303823 0.42711389888451595 0.7329096870388027 0.427102381330527 0.7329076058197963 -0.1498794629733588 0.20931131946532824
6.127500000000001E10 0.11673830753431742 0.21805010312530412 0.6133180855856233 0.5927337384893407 0.6133062836237736 0.5927350050940071 -0.13490691026813162 0.25016877473112953
6.135E10 0.22977149308050693 0.17542643329079557 0.7592892027416196 0.4043463922339293 0.7592780602138903 0.40435107661054787 -0.10727109776465048 0.2691835784991817
6.142500000000001E10 0.32339643419257097 0.06735038019463047 0.8492279718922018 0.17543451100714638 0.8492185397017605 0.17544241775318187 -0.08243535382205497 0.2638356598414226
6.150000000000001E10 0.3568296321469201 -0.09343323607757122 0.865969915180419 -0.07673416442340458 0.8659632499226392 -0.07672363961179642 -0.07535190730380686 0.2411192702970637
6.1575E10 0.30066641811730976 -0.26687453809382183 0.8002864635918353 -0.3229427428616432 0.8002833747215738 -0.32293066733095316 -0.09406912593064985 0.21653129565668358
6.165000000000001E10 0.1564738779413911 -0.39836788559904224 0.6605701135859556 -0.5297557851719751 0.6605708843264309 -0.529743517700548 -0.1347311512542698 0.2075980448536734
6.1725E10 -0.04009071744335614 -0.4450203360464822 0.4722874662317215 -0.6738860231250434 0.47229176753326857 -0.6738748619240419 -0.18335714426492355 0.22485430675749035
6.180000000000001E10 -0.2378227728492811 -0.3942520091465913 0.2658169968429787 -0.7504432732319682 0.26582406765055133 -0.7504341534833675 -0.2238864871352123 0.2676200764287752
6.187500000000001E10 -0.3926169000517052 -0.26144289976436663 0.06387711460370948 -0.7687951647862257 0.06388605443885034 -0.7687885735151886 -0.24543652769870822 0.3270972039938762
6.195E10 -0.47747471421808585 -0.07585200661116072 -0.12253163314714464 -0.742677142259694 -0.12252164456935785 -0.7426732168521474 -0.24424472369278763 0.3921195779679855
6.202500000000001E10 -0.48045969011591244 0.13066871442258002 -0.29102627243599355 -0.6827991813830417 -0.2910158899933174 -0.6827978680636296 -0.2218868736661636 0.4529300350394783
6.21E10 -0.3994050121679482 0.3273559577674409 -0.4426275535845834 -0.594083215645574 -0.4426172843491957 -0.5940844020580951 -0.1829889364834686 0.5023222337011221
6.217500000000001E10 -0.23953806113596912 0.4833154120417273 -0.5771387274403548 -0.4760653636276484 -0.5771290044661106 -0.4760689547193172 -0.13393802595238108 0.5355720152412508
6.225000000000001E10 -0.01601705669749636 0.5659898062418671 -0.6895284282688181 -0.3252741049017205 -0.6895197073633613 -0.3252800323893981 -0.08248317945904234 0.5505160622459148
6.2325E10 0.23965237389232122 0.5442239906061961 -0.7676541410330507 -0.13969468446915673 -0.7676469871080266 -0.13970283939521438 -0.03732190996247209 0.5484288725112015
6.240000000000001E10 0.47474364004192626 0.4003288702137974 -0.7932813477463165 0.07461693751746706 -0.7932764539359876 0.07460684737452511 -0.0064287020467827145 0.5353487434664751
6.2475E10 0.6229972481003253 0.14935558983268601 -0.7493358838514151 0.2977298268015994 -0.7493339533920488 0.2977184342361591 0.006508330034778196 0.5220460794715849
6.255000000000001E10 0.6322351954336778 -0.15047088439266038 -0.6321445677126135 0.49789554943890635 -0.6321460596315417 0.4978838620056505 0.005634313764195676 0.5203328614553905
6.262500000000001E10 0.4963192785233821 -0.4165489486768977 -0.45860001994491 0.644929689044327 -0.45860491237942236 0.6449188990965093 0.00220229998646995 0.5366754284764901
6.27E10 0.2595022158196639 -0.582220522393745 -0.25884395379486674 0.7249726601387083 -0.2588517172307848 0.7249638285089965 0.008519991267505963 0.5686309764535535
6.277500000000001E10 -0.011879305074132705 -0.6227019393467029 -0.06078254063999366 0.7429191471621966 -0.0607923258088487 0.7429129795322197 0.03181934492552214 0.6074456947824701
6.285E10 -0.26057113761448575 -0.5498722057282006 0.11938040937735911 0.713305498119143 0.11936953508471193 0.7133023109275198 0.072789384604508 0.6433601694245649
6.292500000000001E10 -0.450479605335551 -0.39274866178496054 0.27662875801937126 0.6504034832532025 0.27661765594843263 0.6504032904728708 0.12772064771320676 0.6690111754576663
6.300000000000001E10 -0.5632201283238787 -0.18286743474467596 0.4120389036127099 0.5634275174460878 0.4120283067942616 0.563430138936653 0.19103913071784442 0.6801341602308811
6.3075E10 -0.5906476485862321 0.05073477799273391 0.5279506819000164 0.45602496002781434 0.5279411969638429 0.4560301018534918 0.2567390955738156 0.6750387707404821
6.315000000000001E10 -0.5299877263800227 0.2803493958257877 0.6246868246333633 0.3277209269275174 0.6246789565657156 0.32772822517792494 0.31888542988335633 0.6541058623128061
6.3225E10 -0.383460868620392 0.4763722069480791 0.6984411675607767 0.17622222269756055 0.6984353463356089 0.17623125616381446 0.37184901277262017 0.6197586083770414
6.330000000000001E10 -0.16243170179009808 0.6054890202739458 0.7401681750493598 6.562741072569683E-4 0.7401647705045079 6.665520997226294E-4 0.4109111193126681 0.5767975021190827
6.337500000000001E10 0.10545924560337369 0.634051737012398 0.7363847317081714 -0.1940670907324191 0.7363840422039695 -0.19405615618286393 0.4336708366394921 0.5325044143255881
6.345E10 0.3714762480691805 0.5399028933577488 0.6736258509496843 -0.39306209605380704 0.6736280528341844 -0.39305121153833783 0.44204318937840587 0.49545954006288623
6.352500000000001E10 0.572711464190219 0.329939375696531 0.5467838895695748 -0.5713234692259576 0.5467889546620257 -0.571313437383426 0.4433327917105399 0.47231262008321395
6.36E10 0.6555011520993285 0.04948718653767273 0.36654517414262966 -0.7014086265482873 0.36655280144492425 -0.7014002535119679 0.44816295901083053 0.4637927696039433
6.367500000000001E10 0.602036729531768 -0.2315546208428487 0.15807805996375057 -0.7658372861240353 0.1580876819549505 -0.765831247582127 0.46530713381827343 0.46348560863510985
6.375000000000001E10 0.43678747032459947 -0.44946956444029074 -0.0499290283884936 -0.7640263680375553 -0.049918155681510874 -0.7640231077742673 0.49728298941894494 0.4612256721132789
6.3825E10 0.20847944356516582 -0.5692966993734548 -0.23658325953072357 -0.708379596213096 -0.2365719392683816 -0.7083793025901431 0.5401843686663613 0.4482406590455084
6.390000000000001E10 -0.033337782127830715 -0.5860377475365749 -0.39241830225485197 -0.615087002309792 -0.39240731111908006 -0.6150896431075644 0.5867449291825745 0.4200810656383947
6.3975E10 -0.25091848062980476 -0.51315520159185 -0.5163005704411157 -0.4973136275888447 -0.5162906184362434 -0.49731899828482884 0.6294846360610241 0.37660619402778417
6.405E10 -0.41948695298937916 -0.37131634155220417 -0.6105309601625346 -0.36300673094867214 -0.6105226780757184 -0.36301448905707073 0.6623798432240585 0.3206577884113572
6.4125E10 -0.5234349425620825 -0.18267605879397383 -0.6770928951280233 -0.21570170295742266 -0.6770868283572324 -0.2157113837273557 0.6813421392053267 0.25682678040031076
6.42E10 -0.5526770594707563 0.02998464774513822 -0.7155096634461116 -0.056518137075761365 -0.7155062584110342 -0.05652915679713072 0.6842824488970211 0.19071083855364238
6.427500000000001E10 -0.5014872540621974 0.24159879766666964 -0.7219536845625898 0.11341639026078135 -0.7219532601176589 0.11340473349911682 0.6712774313381481 0.12844753072843865
6.434999999999999E10 -0.37058529747970637 0.42303928619829506 -0.6895565370819432 0.2902389297813223 -0.68955923780413 0.2902274446878003 0.6449673270998781 0.07609153339191285
6.4425E10 -0.1721129925678386 0.5419512898195594 -0.610433615877547 0.4646403035565262 -0.6104393522415235 0.46462986572547904 0.610895902541825 0.03841110969021677
6.45E10 0.06506812869706566 0.5690203491840267 -0.4799336322749474 0.6204773824273112 -0.4799420293277599 0.6204688488998334 0.5770507984766481 0.01702318973713478
6.4575E10 0.29544040602804894 0.4900125935942577 -0.3021402926891684 0.736955367051085 -0.3021506874653849 0.7369494480820298 0.5517737677438462 0.008669472212121722
6.465000000000001E10 0.4678132154483103 0.3174673700585594 -0.09302077164160395 0.7954242269185308 -0.09303229450715361 0.7954213581657698 0.5402500182569399 0.0053445314868497355
6.472499999999999E10 0.5445981249750271 0.09120011608407173 0.12278339941045585 0.7875455321155403 0.12277167366681949 0.7875458162676281 0.5416863218823254 -0.002657711816417426
6.48E10 0.5164075243876505 -0.13642824049101632 0.32068669376503167 0.718583271220616 0.32067559756353803 0.7185865229171091 0.5496353661218342 -0.02232126404433183
6.4875E10 0.40132554858917424 -0.320389271669521 0.48408804261132 0.603283656660957 0.4840782403271983 0.6032895109646458 0.5553237254454488 -0.055246612328041504
6.495E10 0.23231134834564413 -0.43449824073206345 0.6064472908772774 0.45841758226100127 0.60643928497648 0.45842559431460544 0.551320411796899 -0.09809258875506695
6.502500000000001E10 0.04399681928744185 -0.47131732369863544 0.6882796237592819 0.2973938199854183 0.6882738001537041 0.2974035142235178 0.5334494697213505 -0.14477864454181158
6.509999999999999E10 -0.13445572609243228 -0.436213185405153 0.7327593354860894 0.12873429122709606 0.7327560036711446 0.1287451627794616 0.5009338983663847 -0.18860035176415443
6.5175E10 -0.2808597499374051 -0.34162653455507 0.7424480068780835 -0.04277878289354515 0.7424474124960959 -0.04276729182326163 0.45577069545003984 -0.22352271396671872
6.525E10 -0.3790490323860123 -0.2039672676055985 0.7177370363057627 -0.21389433315488557 0.7177393418628029 -0.21388285927991071 0.4020871250751227 -0.24486320958392435
6.5325E10 -0.41810096247924106 -0.04281334798844404 0.6567791770564916 -0.38054643629820667 0.656784414990987 -0.3805357054833804 0.3456475955143767 -0.24982430730554206
6.540000000000001E10 -0.39308263590092546 0.11905619080323153 0.5567205974543087 -0.5358448774815278 0.5567286055903046 -0.5358356829806928 0.29326757518939833 -0.2381539575179987
6.547499999999999E10 -0.3073957054650768 0.2566427454337087 0.41615581109173094 -0.6689787450237187 0.4161661703921381 -0.6689718800217895 0.2517308505759507 -0.21283345675807025
6.555E10 -0.17532505923130726 0.3463434126671562 0.23833876973302043 -0.7659238038853919 0.23835077717293762 -0.765919946869327 0.22599053009733325 -0.18023462174866214
6.5625E10 -0.022010563595516574 0.372309984454255 0.03372816745022622 -0.8126044111400927 0.03374087970445203 -0.812603989878797 0.21708135544567705 -0.14896402092511643
6.57E10 0.12162930784332023 0.3328142579242208 -0.18017786392946805 -0.7997252627595114 -0.18016550525718794 -0.7997283518129664 0.22097773460451575 -0.12715299160944243
6.577500000000001E10 0.22816892648885212 0.2420379896793241 -0.38260852677472185 -0.7266300565206574 -0.38259752661293384 -0.726636362038982 0.2296315307999827 -0.11926189537648281
6.584999999999999E10 0.2822365458175052 0.12498130659769344 -0.5550481158327629 -0.6015424708018808 -0.5550392845847706 -0.6015514099590572 0.23404219189764275 -0.12430961080830105
6.5925E10 0.28342025168906954 0.00832226018796832 -0.6851596190939234 -0.43818512788742536 -0.6851535094902583 -0.43819595460369243 0.22763622697059074 -0.13657583436711976
6.6E10 0.24299619677214584 -0.08742335100453519 -0.7672912104223604 -0.2513889611532553 -0.7672881284332294 -0.25140087565808816 0.2082108594786498 -0.14804861074019318
6.6075E10 0.17783181876336454 -0.1513732291809145 -0.8004767488417035 -0.05427687721265508 -0.8004767975664068 -0.05428908789735255 0.17803423037195262 -0.15109533869793054
6.615000000000001E10 0.10488525565988528 -0.18186860821144654 -0.7860029821767727 0.14227292830904872 -0.7860060986964904 0.14226118352447994 0.14276151298809542 -0.1404044155134294
6.622499999999999E10 0.03764495250895052 -0.18412456141256733 -0.7259979417242061 0.328706153951889 -0.7260039097386842 0.3286956003448928 0.10988804223762103 -0.114077035993672
6.63E10 -0.015694567433905834 -0.16734537744774367 -0.6234010561505082 0.4956362587290446 -0.6234095001978285 0.49562756690357473 0.08704242187927899 -0.07404072453387282
6.6375E10 -0.052792454655453715 -0.1417917437221818 -0.48289466045240986 0.6333943451321045 -0.4829050409594113 0.6333880913086178 0.08019259698022767 -0.025785996805214897
6.645E10 -0.07655529862234539 -0.11595321750952399 -0.3119677409024329 0.7326964095646611 -0.3119793708373719 0.7326930201904517 0.09199500379548835 0.02275150183187491
6.652500000000001E10 -0.09325994291745802 -0.09424443010705703 -0.12123000754270209 0.7861844327608011 -0.12124210076861897 0.7861841336066563 0.1208275351959991 0.06317510624765937
6.659999999999999E10 -0.10964459313092549 -0.07596382410953519 0.07648653169702806 0.7900127660816797 0.0764747886895652 0.7900155582308248 0.16107708521227065 0.08898681420882092
6.6675E10 -0.12983277309685326 -0.056058048386864616 0.26791488286179116 0.7445481449272696 0.26790425876426865 0.7445538170687828 0.20476402874998284 0.0974235834677176
6.675E10 -0.15321025137960684 -0.02750381270491398 0.44109506111868996 0.6538305176951891 0.44108622941114517 0.6538386840610335 0.24388453240208202 0.09002795917257363
6.6825E10 -0.17395936703716935 0.015548626420039423 0.5862268773649405 0.5242856780784512 0.586220394072816 0.5242958191970241 0.27254228730260455 0.07186908576037367
6.690000000000001E10 -0.1822847625900088 0.07482290376052485 0.6954855830249171 0.3636082115643221 0.6954818798660957 0.36361969921779336 0.2882383632807835 0.0499176892549583
6.697499999999999E10 -0.16701716280113243 0.14581124523291758 0.7623766764768916 0.1804906637788615 0.7623760470795486 0.18050276831728837 0.29220435498989705 0.03118164016104278
6.705E10 -0.11927804045945825 0.21703291381616072 0.781515243254625 -0.014777350315670998 0.7815178054977033 -0.014765452957226819 0.2889282372761556 0.020968788264132447
6.7125E10 -0.036700286918994275 0.27136576351685293 0.7495042778168668 -0.20951968174073865 0.7495099144897654 -0.20950887457422354 0.2849666781131704 0.021475476715096607
6.72E10 0.07308555770054029 0.2901316188797582 0.6668710493209431 -0.3888208919667083 0.6668793555175632 -0.3888120304832553 0.2870795553611913 0.031016888243756306
6.727500000000001E10 0.1918754356423144 0.25949896998130767 0.5399826803179574 -0.5374989435222822 0.5399929630550435 -0.5374927249550874 0.3000062712714675 0.044398085353822586
6.734999999999999E10 0.29489086493859606 0.17666627623610537 0.38124138846469474 -0.6435690109347035 0.38125275019114946 -0.6435658458881717 0.32473956532864007 0.05466848731674693
6.7425E10 0.35832523401419974 0.05222555824678167 0.2066469965310318 -0.7013562155870421 0.2066584868422549 -0.7013561650747057 0.35827334375945435 0.05566237765766612
6.75E10 0.3665863871227209 -0.09288739671552529 0.03176978067995092 -0.7122396477759103 0.031780554860560306 -0.7122424576955866 0.3950108569654252 0.044039260582678944
6.7575E10 0.31562512376257296 -0.23374755489867324 -0.1315937158850249 -0.682675088848782 -0.13158429499709734 -0.6826802982495772 0.4289283879761548 0.019869124223916276
6.765000000000001E10 0.2118998046320811 -0.3473341862129384 -0.27655681107052493 -0.620971018417624 -0.2765491518518107 -0.6209780854237663 0.4553038919024919 -0.014127899220698395
6.772499999999999E10 0.0692160440732139 -0.41575620166560634 -0.40021590971337223 -0.5345961713237484 -0.4002102330927289 -0.5346045689768704 0.4714615307663852 -0.05387117900539628
6.78E10 -0.09413401930645067 -0.4270869475280303 -0.5017395139321486 -0.428870267909332 -0.5017359221625355 -0.4288795301908756 0.47672677786192064 -0.09502268800812572
6.7875E10 -0.2569083414932232 -0.3753639204007367 -0.5804446189834483 -0.30698193214035 -0.5804431610848034 -0.30699165298467057 0.4720557509274135 -0.13366408074233543
6.795E10 -0.3955453097127263 -0.2612228341822702 -0.6343783806842708 -0.1709643757020498 -0.6343790941147719 -0.17097417410274693 0.45967015281310264 -0.16666819962857204
6.802500000000001E10 -0.48523265384990844 -0.09383145693768069 -0.6596874499600413 -0.02331167016198048 -0.6596903655586198 -0.023321138805932267 0.44277583809441173 -0.19199642546334159
6.809999999999999E10 -0.5031403245441883 0.10648687643418125 -0.6511019818910277 0.13110453655273493 -0.6511070855170319 0.13109587604845246 0.425227595730853 -0.20907430711228395
6.8175E10 -0.43491688938052414 0.30727127482980665 -0.6038560340864509 0.28351987237725224 -0.6038631914767811 0.28351257759634374 0.41090115829491514 -0.21917920694551904
6.825E10 -0.2830464372329304 0.4681081602883898 -0.516791076048654 0.4213658849695162 -0.5167999516587123 0.42136053726263323 0.4026626989471379 -0.22549006544331038
6.8325E10 -0.07190498037106005 0.5517062818830584 -0.3951312347449219 0.530934365624239 -0.39514125757532936 0.5309314527795589 0.4012572192102423 -0.2323621356092044
6.840000000000001E10 0.1564964253621164 0.5377437180899838 -0.25064794334588775 0.6018681344645138 -0.25065836200910546 0.6018679205940856 0.40486033889584677 -0.24383211248491027
6.847499999999999E10 0.35611507594499114 0.43059830938602395 -0.0983514405959451 0.6306981643309204 -0.09836145550813773 0.6307006189616085 0.4098088598715157 -0.262117694937495
